T12B0 3094:066 SEGGER J-Link V4.98e Log File (0001ms, 22169ms total)
T12B0 3094:066 DLL Compiled: May  5 2015 11:00:52 (0001ms, 22169ms total)
T12B0 3094:066 Logging started @ 2016-03-10 16:38 (0001ms, 22169ms total)
T12B0 3094:083 JLINK_ExecCommand("Device = AT91SAM3X8E", ...)Device "ATSAM3X8E" selected.  returns 0x00 (0000ms, 22169ms total)
T12B0 3094:404 JLINK_ExecCommand("ProjectFile = C:\Avr\grbl-v9\grbl-v9\jlink.config", ...)  returns 0x00 (0000ms, 22169ms total)
T12B0 3094:423 JLINK_ExecCommand("Device = AT91SAM3X8E", ...)Device "ATSAM3X8E" selected.  returns 0x00 (0000ms, 22169ms total)
T12B0 3094:423 JLINK_TIF_Select(JLINKARM_TIF_SWD)  returns 0x00 (0002ms, 22171ms total)
T12B0 3094:425 JLINK_SetSpeed(11886) (0001ms, 22172ms total)
T12B0 3094:426 JLINK_ResetPullsRESET(OFF) (0000ms, 22172ms total)
T12B0 3094:426 JLINK_Connect() >0x108 TIF>Found SWD-DP with ID 0x2BA01477 >0x0D TIF> >0x21 TIF> >0x0D TIF> >0x28 TIF> >0x0D TIF> >0x28 TIF> >0x0D TIF> >0x21 TIF> >0x0D TIF> >0x28 TIF> >0x0D TIF> >0x21 TIF> >0x0D TIF> >0x21 TIF> >0x0D TIF> >0x21 TIF> >0x0D TIF> >0x21 TIF> >0x0D TIF> >0x28 TIF> >0x0D TIF> >0x28 TIF> >0x0D TIF> >0x21 TIF> >0x0D TIF> >0x28 TIF> >0x0D TIF> >0x28 TIF> >0x0D TIF> >0x28 TIF> >0x0D TIF> >0x21 TIF> >0x0D TIF> >0x21 TIF> >0x0D TIF> >0x28 TIF> >0x0D TIF> >0x21 TIF> >0x0D TIF>
 >0x21 TIF>Found Cortex-M3 r2p0, Little endian. -- CPU_WriteMem(4 bytes @ 0xE0002000) -- CPU_ReadMem(4 bytes @ 0xE000EDF0) -- CPU_ReadMem(4 bytes @ 0xE0002000)FPUnit: 6 code (BP) slots and 2 literal slots -- CPU_ReadMem(4 bytes @ 0xE000EDFC) -- CPU_ReadMem(4 bytes @ 0xE0001000) -- CPU_WriteMem(4 bytes @ 0xE0001000) -- CPU_ReadMem(4 bytes @ 0xE000ED88) -- CPU_WriteMem(4 bytes @ 0xE000ED88) -- CPU_ReadMem(4 bytes @ 0xE000ED88) -- CPU_WriteMem(4 bytes @ 0xE000ED88)CoreSight components:ROMTbl 0 @ E00FF000
 -- CPU_ReadMem(16 bytes @ 0xE00FF000) -- CPU_ReadMem(16 bytes @ 0xE000EFF0) -- CPU_ReadMem(16 bytes @ 0xE000EFE0)ROMTbl 0 [0]: FFF0F000, CID: B105E00D, PID: 002BB000 SCS -- CPU_ReadMem(16 bytes @ 0xE0001FF0) -- CPU_ReadMem(16 bytes @ 0xE0001FE0)ROMTbl 0 [1]: FFF02000, CID: B105E00D, PID: 002BB002 DWT -- CPU_ReadMem(16 bytes @ 0xE0002FF0) -- CPU_ReadMem(16 bytes @ 0xE0002FE0)ROMTbl 0 [2]: FFF03000, CID: B105E00D, PID: 002BB003 FPB -- CPU_ReadMem(16 bytes @ 0xE0000FF0)
 -- CPU_ReadMem(16 bytes @ 0xE0000FE0)ROMTbl 0 [3]: FFF01000, CID: B105E00D, PID: 002BB001 ITM -- CPU_ReadMem(16 bytes @ 0xE00FF010) -- CPU_ReadMem(16 bytes @ 0xE0040FF0) -- CPU_ReadMem(16 bytes @ 0xE0040FE0)ROMTbl 0 [4]: FFF41000, CID: B105900D, PID: 002BB923 TPIU-Lite  returns 0x00 (0044ms, 22216ms total)
T12B0 3094:470 JLINK_GetDebugInfo(0x100) -- Value=0xE00FF003  returns 0x00 (0001ms, 22217ms total)
T12B0 3094:471 JLINK_ReadMem (0xE00FFFF0, 0x0010 Bytes, ...) -- CPU is running -- CPU_ReadMem(16 bytes @ 0xE00FFFF0) - Data: 0D 00 00 00 10 00 00 00 05 00 00 00 B1 00 00 00  returns 0x00 (0001ms, 22218ms total)
T12B0 3094:472 JLINK_ReadMem (0xE00FFFD0, 0x0020 Bytes, ...) -- CPU is running -- CPU_ReadMem(32 bytes @ 0xE00FFFD0) - Data: 00 00 00 00 00 00 00 00 00 00 00 00 00 00 00 00 ...  returns 0x00 (0001ms, 22219ms total)
T12B0 3094:473 JLINK_ReadMemU32(0xE00FF000, 0x0001 Items, ...) -- CPU is running -- CPU_ReadMem(4 bytes @ 0xE00FF000) - Data: 03 F0 F0 FF  returns 0x01 (0000ms, 22219ms total)
T12B0 3094:473 JLINK_ReadMem (0xE000EFF0, 0x0010 Bytes, ...) -- CPU is running -- CPU_ReadMem(16 bytes @ 0xE000EFF0) - Data: 0D 00 00 00 E0 00 00 00 05 00 00 00 B1 00 00 00  returns 0x00 (0001ms, 22220ms total)
T12B0 3094:474 JLINK_ReadMem (0xE000EFD0, 0x0020 Bytes, ...) -- CPU is running -- CPU_ReadMem(32 bytes @ 0xE000EFD0) - Data: 04 00 00 00 00 00 00 00 00 00 00 00 00 00 00 00 ...  returns 0x00 (0001ms, 22221ms total)
T12B0 3094:475 JLINK_ReadMemU32(0xE00FF004, 0x0001 Items, ...) -- CPU is running -- CPU_ReadMem(4 bytes @ 0xE00FF004) - Data: 03 20 F0 FF  returns 0x01 (0001ms, 22222ms total)
T12B0 3094:476 JLINK_ReadMem (0xE0001FF0, 0x0010 Bytes, ...) -- CPU is running -- CPU_ReadMem(16 bytes @ 0xE0001FF0) - Data: 0D 00 00 00 E0 00 00 00 05 00 00 00 B1 00 00 00  returns 0x00 (0001ms, 22223ms total)
T12B0 3094:477 JLINK_ReadMem (0xE0001FD0, 0x0020 Bytes, ...) -- CPU is running -- CPU_ReadMem(32 bytes @ 0xE0001FD0) - Data: 04 00 00 00 00 00 00 00 00 00 00 00 00 00 00 00 ...  returns 0x00 (0001ms, 22224ms total)
T12B0 3094:478 JLINK_ReadMemU32(0xE00FF008, 0x0001 Items, ...) -- CPU is running -- CPU_ReadMem(4 bytes @ 0xE00FF008) - Data: 03 30 F0 FF  returns 0x01 (0001ms, 22225ms total)
T12B0 3094:479 JLINK_ReadMem (0xE0002FF0, 0x0010 Bytes, ...) -- CPU is running -- CPU_ReadMem(16 bytes @ 0xE0002FF0) - Data: 0D 00 00 00 E0 00 00 00 05 00 00 00 B1 00 00 00  returns 0x00 (0001ms, 22226ms total)
T12B0 3094:480 JLINK_ReadMem (0xE0002FD0, 0x0020 Bytes, ...) -- CPU is running -- CPU_ReadMem(32 bytes @ 0xE0002FD0) - Data: 04 00 00 00 00 00 00 00 00 00 00 00 00 00 00 00 ...  returns 0x00 (0001ms, 22227ms total)
T12B0 3094:481 JLINK_ReadMemU32(0xE00FF00C, 0x0001 Items, ...) -- CPU is running -- CPU_ReadMem(4 bytes @ 0xE00FF00C) - Data: 03 10 F0 FF  returns 0x01 (0000ms, 22227ms total)
T12B0 3094:481 JLINK_ReadMem (0xE0000FF0, 0x0010 Bytes, ...) -- CPU is running -- CPU_ReadMem(16 bytes @ 0xE0000FF0) - Data: 0D 00 00 00 E0 00 00 00 05 00 00 00 B1 00 00 00  returns 0x00 (0001ms, 22228ms total)
T12B0 3094:482 JLINK_ReadMem (0xE0000FD0, 0x0020 Bytes, ...) -- CPU is running -- CPU_ReadMem(32 bytes @ 0xE0000FD0) - Data: 04 00 00 00 00 00 00 00 00 00 00 00 00 00 00 00 ...  returns 0x00 (0001ms, 22229ms total)
T12B0 3094:483 JLINK_ReadMemU32(0xE00FF010, 0x0001 Items, ...) -- CPU is running -- CPU_ReadMem(4 bytes @ 0xE00FF010) - Data: 03 10 F4 FF  returns 0x01 (0001ms, 22230ms total)
T12B0 3094:484 JLINK_ReadMem (0xE0040FF0, 0x0010 Bytes, ...) -- CPU is running -- CPU_ReadMem(16 bytes @ 0xE0040FF0) - Data: 0D 00 00 00 90 00 00 00 05 00 00 00 B1 00 00 00  returns 0x00 (0001ms, 22231ms total)
T12B0 3094:485 JLINK_ReadMem (0xE0040FD0, 0x0020 Bytes, ...) -- CPU is running -- CPU_ReadMem(32 bytes @ 0xE0040FD0) - Data: 04 00 00 00 00 00 00 00 00 00 00 00 00 00 00 00 ...  returns 0x00 (0001ms, 22232ms total)
T12B0 3094:486 JLINK_ReadMemU32(0xE00FF014, 0x0001 Items, ...) -- CPU is running -- CPU_ReadMem(4 bytes @ 0xE00FF014) - Data: 02 20 F4 FF  returns 0x01 (0001ms, 22233ms total)
T12B0 3094:487 JLINK_ReadMemU32(0xE00FF018, 0x0001 Items, ...) -- CPU is running -- CPU_ReadMem(4 bytes @ 0xE00FF018) - Data: 00 00 00 00  returns 0x01 (0001ms, 22234ms total)
T12B0 3094:488 JLINK_ReadMem (0xE0001000, 0x0004 Bytes, ...) -- CPU is running -- CPU_ReadMem(4 bytes @ 0xE0001000) - Data: 01 00 00 40  returns 0x00 (0001ms, 22235ms total)
T12B0 3094:489 JLINK_ReadMem (0xE0001000, 0x0004 Bytes, ...) -- CPU is running -- CPU_ReadMem(4 bytes @ 0xE0001000) - Data: 01 00 00 40  returns 0x00 (0000ms, 22235ms total)
T12B0 3094:489 JLINK_ReadMem (0xE0001028, 0x0004 Bytes, ...) -- CPU is running -- CPU_ReadMem(4 bytes @ 0xE0001028) - Data: 00 00 00 00  returns 0x00 (0001ms, 22236ms total)
T12B0 3094:490 JLINK_WriteMem(0xE0001028, 0x0004 Bytes, ...) - Data: 00 01 00 00 -- CPU is running -- CPU_WriteMem(4 bytes @ 0xE0001028)  returns 0x04 (0001ms, 22237ms total)
T12B0 3094:491 JLINK_ReadMem (0xE0001028, 0x0004 Bytes, ...) -- CPU is running -- CPU_ReadMem(4 bytes @ 0xE0001028) - Data: 00 00 00 00  returns 0x00 (0001ms, 22238ms total)
T12B0 3094:492 JLINK_ReadMem (0xE0001038, 0x0004 Bytes, ...) -- CPU is running -- CPU_ReadMem(4 bytes @ 0xE0001038) - Data: 00 02 00 00  returns 0x00 (0000ms, 22238ms total)
T12B0 3094:492 JLINK_WriteMem(0xE0001038, 0x0004 Bytes, ...) - Data: 00 03 00 00 -- CPU is running -- CPU_WriteMem(4 bytes @ 0xE0001038)  returns 0x04 (0001ms, 22239ms total)
T12B0 3094:493 JLINK_ReadMem (0xE0001038, 0x0004 Bytes, ...) -- CPU is running -- CPU_ReadMem(4 bytes @ 0xE0001038) - Data: 00 03 00 00  returns 0x00 (0001ms, 22240ms total)
T12B0 3094:494 JLINK_ReadMem (0xE0001048, 0x0004 Bytes, ...) -- CPU is running -- CPU_ReadMem(4 bytes @ 0xE0001048) - Data: 00 00 00 00  returns 0x00 (0001ms, 22241ms total)
T12B0 3094:495 JLINK_WriteMem(0xE0001048, 0x0004 Bytes, ...) - Data: 00 01 00 00 -- CPU is running -- CPU_WriteMem(4 bytes @ 0xE0001048)  returns 0x04 (0001ms, 22242ms total)
T12B0 3094:496 JLINK_ReadMem (0xE0001048, 0x0004 Bytes, ...) -- CPU is running -- CPU_ReadMem(4 bytes @ 0xE0001048) - Data: 00 00 00 00  returns 0x00 (0000ms, 22242ms total)
T12B0 3094:496 JLINK_ReadMem (0xE0001058, 0x0004 Bytes, ...) -- CPU is running -- CPU_ReadMem(4 bytes @ 0xE0001058) - Data: 00 00 00 00  returns 0x00 (0001ms, 22243ms total)
T12B0 3094:497 JLINK_WriteMem(0xE0001058, 0x0004 Bytes, ...) - Data: 00 01 00 00 -- CPU is running -- CPU_WriteMem(4 bytes @ 0xE0001058)  returns 0x04 (0001ms, 22244ms total)
T12B0 3094:498 JLINK_ReadMem (0xE0001058, 0x0004 Bytes, ...) -- CPU is running -- CPU_ReadMem(4 bytes @ 0xE0001058) - Data: 00 00 00 00  returns 0x00 (0001ms, 22245ms total)
T12B0 3094:499 JLINK_ReadMem (0xE0001024, 0x0004 Bytes, ...) -- CPU is running -- CPU_ReadMem(4 bytes @ 0xE0001024) - Data: 00 00 00 00  returns 0x00 (0001ms, 22246ms total)
T12B0 3094:500 JLINK_WriteMem(0xE0001024, 0x0004 Bytes, ...) - Data: 1F 00 00 00 -- CPU is running -- CPU_WriteMem(4 bytes @ 0xE0001024)  returns 0x04 (0001ms, 22247ms total)
T12B0 3094:501 JLINK_ReadMem (0xE0001024, 0x0004 Bytes, ...) -- CPU is running -- CPU_ReadMem(4 bytes @ 0xE0001024) - Data: 0F 00 00 00  returns 0x00 (0000ms, 22247ms total)
T12B0 3094:501 JLINK_ReadMem (0xE0001034, 0x0004 Bytes, ...) -- CPU is running -- CPU_ReadMem(4 bytes @ 0xE0001034) - Data: 00 00 00 00  returns 0x00 (0001ms, 22248ms total)
T12B0 3094:502 JLINK_WriteMem(0xE0001034, 0x0004 Bytes, ...) - Data: 1F 00 00 00 -- CPU is running -- CPU_WriteMem(4 bytes @ 0xE0001034)  returns 0x04 (0001ms, 22249ms total)
T12B0 3094:503 JLINK_ReadMem (0xE0001034, 0x0004 Bytes, ...) -- CPU is running -- CPU_ReadMem(4 bytes @ 0xE0001034) - Data: 0F 00 00 00  returns 0x00 (0001ms, 22250ms total)
T12B0 3094:504 JLINK_ReadMem (0xE0001044, 0x0004 Bytes, ...) -- CPU is running -- CPU_ReadMem(4 bytes @ 0xE0001044) - Data: 00 00 00 00  returns 0x00 (0000ms, 22250ms total)
T12B0 3094:504 JLINK_WriteMem(0xE0001044, 0x0004 Bytes, ...) - Data: 1F 00 00 00 -- CPU is running -- CPU_WriteMem(4 bytes @ 0xE0001044)  returns 0x04 (0001ms, 22251ms total)
T12B0 3094:505 JLINK_ReadMem (0xE0001044, 0x0004 Bytes, ...) -- CPU is running -- CPU_ReadMem(4 bytes @ 0xE0001044) - Data: 0F 00 00 00  returns 0x00 (0001ms, 22252ms total)
T12B0 3094:506 JLINK_ReadMem (0xE0001054, 0x0004 Bytes, ...) -- CPU is running -- CPU_ReadMem(4 bytes @ 0xE0001054) - Data: 00 00 00 00  returns 0x00 (0001ms, 22253ms total)
T12B0 3094:507 JLINK_WriteMem(0xE0001054, 0x0004 Bytes, ...) - Data: 1F 00 00 00 -- CPU is running -- CPU_WriteMem(4 bytes @ 0xE0001054)  returns 0x04 (0000ms, 22253ms total)
T12B0 3094:507 JLINK_ReadMem (0xE0001054, 0x0004 Bytes, ...) -- CPU is running -- CPU_ReadMem(4 bytes @ 0xE0001054) - Data: 0F 00 00 00  returns 0x00 (0001ms, 22254ms total)
T12B0 3094:508 JLINK_ReadMem (0xE0001028, 0x0004 Bytes, ...) -- CPU is running -- CPU_ReadMem(4 bytes @ 0xE0001028) - Data: 00 00 00 00  returns 0x00 (0001ms, 22255ms total)
T12B0 3094:509 JLINK_ReadMem (0xE0001038, 0x0004 Bytes, ...) -- CPU is running -- CPU_ReadMem(4 bytes @ 0xE0001038) - Data: 00 03 00 00  returns 0x00 (0001ms, 22256ms total)
T12B0 3094:510 JLINK_ReadMem (0xE0001048, 0x0004 Bytes, ...) -- CPU is running -- CPU_ReadMem(4 bytes @ 0xE0001048) - Data: 00 00 00 00  returns 0x00 (0000ms, 22256ms total)
T12B0 3094:510 JLINK_ReadMem (0xE0001058, 0x0004 Bytes, ...) -- CPU is running -- CPU_ReadMem(4 bytes @ 0xE0001058) - Data: 00 00 00 00  returns 0x00 (0001ms, 22257ms total)
T12B0 3094:511 JLINK_WriteMem(0xE0001020, 0x0004 Bytes, ...) - Data: 00 00 00 00 -- CPU is running -- CPU_WriteMem(4 bytes @ 0xE0001020)  returns 0x04 (0001ms, 22258ms total)
T12B0 3094:512 JLINK_WriteMem(0xE0001024, 0x0004 Bytes, ...) - Data: 00 00 00 00 -- CPU is running -- CPU_WriteMem(4 bytes @ 0xE0001024)  returns 0x04 (0001ms, 22259ms total)
T12B0 3094:513 JLINK_WriteMem(0xE0001028, 0x0004 Bytes, ...) - Data: 00 00 00 00 -- CPU is running -- CPU_WriteMem(4 bytes @ 0xE0001028)  returns 0x04 (0000ms, 22259ms total)
T12B0 3094:513 JLINK_WriteMem(0xE0001030, 0x0004 Bytes, ...) - Data: 00 00 00 00 -- CPU is running -- CPU_WriteMem(4 bytes @ 0xE0001030)  returns 0x04 (0001ms, 22260ms total)
T12B0 3094:514 JLINK_WriteMem(0xE0001034, 0x0004 Bytes, ...) - Data: 00 00 00 00 -- CPU is running -- CPU_WriteMem(4 bytes @ 0xE0001034)  returns 0x04 (0001ms, 22261ms total)
T12B0 3094:515 JLINK_WriteMem(0xE0001038, 0x0004 Bytes, ...) - Data: 00 00 00 00 -- CPU is running -- CPU_WriteMem(4 bytes @ 0xE0001038)  returns 0x04 (0001ms, 22262ms total)
T12B0 3094:516 JLINK_WriteMem(0xE0001040, 0x0004 Bytes, ...) - Data: 00 00 00 00 -- CPU is running -- CPU_WriteMem(4 bytes @ 0xE0001040)  returns 0x04 (0000ms, 22262ms total)
T12B0 3094:516 JLINK_WriteMem(0xE0001044, 0x0004 Bytes, ...) - Data: 00 00 00 00 -- CPU is running -- CPU_WriteMem(4 bytes @ 0xE0001044)  returns 0x04 (0001ms, 22263ms total)
T12B0 3094:517 JLINK_WriteMem(0xE0001048, 0x0004 Bytes, ...) - Data: 00 00 00 00 -- CPU is running -- CPU_WriteMem(4 bytes @ 0xE0001048)  returns 0x04 (0001ms, 22264ms total)
T12B0 3094:518 JLINK_WriteMem(0xE0001050, 0x0004 Bytes, ...) - Data: 00 00 00 00 -- CPU is running -- CPU_WriteMem(4 bytes @ 0xE0001050)  returns 0x04 (0001ms, 22265ms total)
T12B0 3094:519 JLINK_WriteMem(0xE0001054, 0x0004 Bytes, ...) - Data: 00 00 00 00 -- CPU is running -- CPU_WriteMem(4 bytes @ 0xE0001054)  returns 0x04 (0001ms, 22266ms total)
T12B0 3094:520 JLINK_WriteMem(0xE0001058, 0x0004 Bytes, ...) - Data: 00 00 00 00 -- CPU is running -- CPU_WriteMem(4 bytes @ 0xE0001058)  returns 0x04 (0000ms, 22266ms total)
T12B0 3094:520 JLINK_Halt()  returns 0x00 (0003ms, 22269ms total)
T12B0 3094:524 JLINK_WriteMem(0x400E0A04, 0x0004 Bytes, ...) - Data: 0B 01 00 5A -- CPU_WriteMem(4 bytes @ 0x400E0A04)  returns 0x04 (0000ms, 22269ms total)
T12B0 3094:524 JLINK_ReadMem (0x400E0A08, 0x0004 Bytes, ...) -- CPU_ReadMem(4 bytes @ 0x400E0A08) - Data: 01 00 00 00  returns 0x00 (0001ms, 22270ms total)
T12B0 3094:525 JLINK_WriteMem(0x400E0A04, 0x0004 Bytes, ...) - Data: 0C 02 00 5A -- CPU_WriteMem(4 bytes @ 0x400E0A04)  returns 0x04 (0001ms, 22271ms total)
T12B0 3094:526 JLINK_ReadMem (0x400E0A08, 0x0004 Bytes, ...) -- CPU_ReadMem(4 bytes @ 0x400E0A08) - Data: 01 00 00 00  returns 0x00 (0001ms, 22272ms total)
T12B0 3094:527 JLINK_Reset() -- CPU_ReadMem(16 bytes @ 0x20000000) -- CPU_WriteMem(16 bytes @ 0x20000000) -- CPU_ReadMem(4 bytes @ 0xE000EDFC) -- CPU_WriteMem(4 bytes @ 0xE000EDFC) -- CPU_ReadMem(4 bytes @ 0xE0001000) -- CPU_WriteMem(4 bytes @ 0xE000ED0C) -- CPU_ReadMem(4 bytes @ 0xE000EDF0) -- CPU_ReadMem(4 bytes @ 0xE000EDF0) -- CPU_WriteMem(4 bytes @ 0xE000EDFC) -- CPU_WriteMem(16 bytes @ 0x20000000) -- CPU_WriteMem(4 bytes @ 0xE0002000) -- CPU_ReadMem(4 bytes @ 0xE000EDFC)
 -- CPU_ReadMem(4 bytes @ 0xE0001000) (0028ms, 22300ms total)
T12B0 3094:557 JLINK_JTAG_GetDeviceID(DeviceIndex = 0)  returns 0x00 (0000ms, 22300ms total)
T12B0 3094:557 JLINK_ReadMemU32(0x400E0940, 0x0001 Items, ...) -- CPU_ReadMem(4 bytes @ 0x400E0940) - Data: 60 0A 5E 28  returns 0x01 (0001ms, 22301ms total)
T12B0 3094:558 JLINK_ReadMemU32(0x400E0944, 0x0001 Items, ...) -- CPU_ReadMem(4 bytes @ 0x400E0944) - Data: 00 00 00 00  returns 0x01 (0001ms, 22302ms total)
T12B0 3094:564 JLINK_BeginDownload(Flags = 0x00) (0000ms, 22302ms total)
T12B0 3094:564 JLINK_WriteMem(0x00080000, 0x12404 Bytes, ...) - Data: E8 1A 00 20 C9 01 08 00 C5 01 08 00 C5 01 08 00 ...  returns 0x12404 (0001ms, 22303ms total)
T12B0 3094:565 JLINK_WriteMem(0x00092404, 0x0008 Bytes, ...) - Data: F4 E6 FF 7F 01 00 00 00  returns 0x08 (0000ms, 22303ms total)
T12B0 3094:565 JLINK_WriteMem(0x0009240C, 0x08C8 Bytes, ...) - Data: 00 09 3D 00 E1 E4 E8 EF E9 ED E5 B5 F2 F3 F4 E0 ...  returns 0x8C8 (0000ms, 22303ms total)
T1F34 3094:567 JLINK_IsHalted()  returns TRUE (0000ms, 22303ms total)
T1F34 3094:567 JLINK_GetMOEs(...) -- CPU_ReadMem(4 bytes @ 0xE000ED30) -- CPU_WriteMem(4 bytes @ 0xE000ED30)  returns 0x01 (0001ms, 22304ms total)
T1F34 3094:568 JLINK_ReadReg(R15 (PC)) -- -------------------------------------- -- Start of determining dirty areas in flash cache -- End of determining dirty areas -- Start of preparing flash programming -- Calculating RAM usage -- RAM usage = 5932 Bytes -- Preserving registers -- Preparing memory -- Determining CPU clock frequency -- CPU clock frequency: 3834 kHz -- CPU frequency = 3834 kHz -- Preparing target -- Downloading RAMCode -- Using alternate TurboMode RAMCode -- Checking target RAM
 -- Preparing RAMCode -- End of preparing flash programmingCPU is running at low speed (3834 kHz). -- CPU is running at 3834 kHz. -- Start of comparing flash -- CRC check was estimated as fastest method -- Comparing range 0x80000 - 0x87FFF (128 Sectors, 32 KB), using multi-block CRC calculation -- All CRCs match -- Comparing range 0x88000 - 0x8FFFF (128 Sectors, 32 KB), using multi-block CRC calculation -- All CRCs match
 -- Comparing range 0x90000 - 0x92CFF (45 Sectors, 11 KB), using multi-block CRC calculation -- All CRCs match -- Comparing range 0x80000 - 0x87FFF (128 Sectors, 32 KB), using alternative multi-block CRC calculation -- All CRCs match -- Comparing range 0x88000 - 0x8FFFF (128 Sectors, 32 KB), using alternative multi-block CRC calculation -- All CRCs match -- Comparing range 0x90000 - 0x92CFF (45 Sectors, 11 KB), using alternative multi-block CRC calculation -- All CRCs match -- End of comparing flash
 -- Start of erasing sectors -- End of erasing sectors -- Start of flash programming -- End of flash programming -- Start of verifying flash -- End of verifying flash -- Start of restoring -- Restore RAMCode -- Restore content of target memory -- Restore target -- Restore memory -- Restore content of registers -- End of restoring -- Flash download into internal flash skipped. Flash contents already match -- Flash download into internal flash skipped. Flash contents already match  returns 0x000801C8
 (1206ms, 23510ms total)
T1B30 3095:879 JLINK_Halt()  returns 0x00 (0002ms, 23512ms total)
T1B30 3095:881 JLINK_ReadReg(R15 (PC))  returns 0x000801C8 (0000ms, 23512ms total)
T1B30 3095:881 JLINK_ReadReg(R13 (SP))  returns 0x20001AE8 (0000ms, 23512ms total)
T1B30 3095:888 JLINK_EndDownload()  returns 0x00 (0000ms, 23512ms total)
T1B30 3095:888 JLINK_ReadMemHW(0x000801C8, 0x0004 Bytes, ...) -- CPU_ReadMem(4 bytes @ 0x000801C8) - Data: 08 B5 1A 4B  returns 0x00 (0001ms, 23513ms total)
T1B30 3095:890 JLINK_ReadReg(R0)  returns 0x400E1A00 (0000ms, 23513ms total)
T1B30 3095:890 JLINK_ReadReg(R1)  returns 0x00000000 (0000ms, 23513ms total)
T1B30 3095:890 JLINK_ReadReg(R2)  returns 0xA5000004 (0000ms, 23513ms total)
T1B30 3095:890 JLINK_ReadReg(R3)  returns 0x00010002 (0000ms, 23513ms total)
T1B30 3095:890 JLINK_ReadReg(R4)  returns 0x400E1400 (0000ms, 23513ms total)
T1B30 3095:890 JLINK_ReadReg(R5)  returns 0x00000100 (0001ms, 23514ms total)
T1B30 3095:891 JLINK_ReadReg(R6)  returns 0x00085409 (0000ms, 23514ms total)
T1B30 3095:891 JLINK_ReadReg(R7)  returns 0x00000000 (0000ms, 23514ms total)
T1B30 3095:891 JLINK_ReadReg(R8)  returns 0x00001388 (0000ms, 23514ms total)
T1B30 3095:891 JLINK_ReadReg(R9)  returns 0x0008BDE9 (0000ms, 23514ms total)
T1B30 3095:891 JLINK_ReadReg(R10)  returns 0x20001484 (0000ms, 23514ms total)
T1B30 3095:891 JLINK_ReadReg(R11)  returns 0x00000096 (0000ms, 23514ms total)
T1B30 3095:891 JLINK_ReadReg(R12)  returns 0x00000000 (0000ms, 23514ms total)
T1B30 3095:891 JLINK_ReadReg(R13 (SP))  returns 0x20001AE8 (0000ms, 23514ms total)
T1B30 3095:891 JLINK_ReadReg(R14)  returns 0xFFFFFFFF (0000ms, 23514ms total)
T1B30 3095:891 JLINK_ReadReg(R15 (PC))  returns 0x000801C8 (0000ms, 23514ms total)
T1B30 3095:891 JLINK_ReadReg(XPSR)  returns 0x01000000 (0000ms, 23514ms total)
T1B30 3095:891 JLINK_ReadReg(MSP)  returns 0x20001AE8 (0000ms, 23514ms total)
T1B30 3095:891 JLINK_ReadReg(PSP)  returns 0x30418A04 (0000ms, 23514ms total)
T1B30 3095:891 JLINK_ReadReg(PRIMASK)  returns 0x00000000 (0000ms, 23514ms total)
T1B30 3095:891 JLINK_ReadReg(BASEPRI)  returns 0x00000000 (0000ms, 23514ms total)
T1B30 3095:891 JLINK_ReadReg(FAULTMASK)  returns 0x00000000 (0000ms, 23514ms total)
T1B30 3095:891 JLINK_ReadReg(CONTROL)  returns 0x00000000 (0000ms, 23514ms total)
T1B30 3095:950 JLINK_ReadReg(R0)  returns 0x400E1A00 (0000ms, 23514ms total)
T1B30 3095:950 JLINK_ReadReg(R1)  returns 0x00000000 (0000ms, 23514ms total)
T1B30 3095:950 JLINK_ReadReg(R2)  returns 0xA5000004 (0000ms, 23514ms total)
T1B30 3095:950 JLINK_ReadReg(R3)  returns 0x00010002 (0000ms, 23514ms total)
T1B30 3095:950 JLINK_ReadReg(R4)  returns 0x400E1400 (0000ms, 23514ms total)
T1B30 3095:950 JLINK_ReadReg(R5)  returns 0x00000100 (0000ms, 23514ms total)
T1B30 3095:950 JLINK_ReadReg(R6)  returns 0x00085409 (0000ms, 23514ms total)
T1B30 3095:950 JLINK_ReadReg(R7)  returns 0x00000000 (0000ms, 23514ms total)
T1B30 3095:950 JLINK_ReadReg(R8)  returns 0x00001388 (0000ms, 23514ms total)
T1B30 3095:950 JLINK_ReadReg(R9)  returns 0x0008BDE9 (0001ms, 23515ms total)
T1B30 3095:951 JLINK_ReadReg(R10)  returns 0x20001484 (0000ms, 23515ms total)
T1B30 3095:951 JLINK_ReadReg(R11)  returns 0x00000096 (0000ms, 23515ms total)
T1B30 3095:951 JLINK_ReadReg(R12)  returns 0x00000000 (0000ms, 23515ms total)
T1B30 3095:951 JLINK_ReadReg(R13 (SP))  returns 0x20001AE8 (0000ms, 23515ms total)
T1B30 3095:951 JLINK_ReadReg(R14)  returns 0xFFFFFFFF (0000ms, 23515ms total)
T1B30 3095:951 JLINK_ReadReg(R15 (PC))  returns 0x000801C8 (0000ms, 23515ms total)
T1B30 3095:951 JLINK_ReadReg(XPSR)  returns 0x01000000 (0000ms, 23515ms total)
T1B30 3095:951 JLINK_ReadReg(MSP)  returns 0x20001AE8 (0000ms, 23515ms total)
T1B30 3095:951 JLINK_ReadReg(PSP)  returns 0x30418A04 (0000ms, 23515ms total)
T1B30 3095:951 JLINK_ReadReg(PRIMASK)  returns 0x00000000 (0000ms, 23515ms total)
T1B30 3095:951 JLINK_ReadReg(BASEPRI)  returns 0x00000000 (0000ms, 23515ms total)
T1B30 3095:951 JLINK_ReadReg(FAULTMASK)  returns 0x00000000 (0000ms, 23515ms total)
T1B30 3095:951 JLINK_ReadReg(CONTROL)  returns 0x00000000 (0000ms, 23515ms total)
T1B30 3095:966 JLINK_ReadMemHW(0x000801C8, 0x0004 Bytes, ...) -- CPU_ReadMem(4 bytes @ 0x000801C8) - Data: 08 B5 1A 4B  returns 0x00 (0002ms, 23517ms total)
T1F34 3095:974 JLINK_IsHalted()  returns TRUE (0000ms, 23517ms total)
T1B30 3096:020 JLINK_Reset() -- CPU_ReadMem(16 bytes @ 0x20000000) -- CPU_WriteMem(16 bytes @ 0x20000000) -- CPU_ReadMem(4 bytes @ 0xE000EDFC) -- CPU_WriteMem(4 bytes @ 0xE000EDFC) -- CPU_ReadMem(4 bytes @ 0xE0001000) -- CPU_WriteMem(4 bytes @ 0xE000ED0C) -- CPU_ReadMem(4 bytes @ 0xE000EDF0) -- CPU_ReadMem(4 bytes @ 0xE000EDF0) -- CPU_WriteMem(4 bytes @ 0xE000EDFC) -- CPU_WriteMem(16 bytes @ 0x20000000) -- CPU_WriteMem(4 bytes @ 0xE0002000) -- CPU_ReadMem(4 bytes @ 0xE000EDFC)
 -- CPU_ReadMem(4 bytes @ 0xE0001000) (0035ms, 23552ms total)
T1F34 3096:055 JLINK_IsHalted()  returns TRUE (0000ms, 23552ms total)
T1F34 3096:055 JLINK_GetMOEs(...) -- CPU_ReadMem(4 bytes @ 0xE000ED30) -- CPU_WriteMem(4 bytes @ 0xE000ED30)  returns 0x01 (0002ms, 23554ms total)
T1F34 3096:057 JLINK_ReadReg(R15 (PC))  returns 0x000801C8 (0000ms, 23554ms total)
T1B30 3096:065 JLINK_ReadReg(R15 (PC))  returns 0x000801C8 (0000ms, 23554ms total)
T1B30 3096:065 JLINK_ReadReg(R13 (SP))  returns 0x20001AE8 (0000ms, 23554ms total)
T1B30 3096:065 JLINK_ReadMemHW(0x000801C8, 0x0004 Bytes, ...) -- CPU_ReadMem(4 bytes @ 0x000801C8) - Data: 08 B5 1A 4B  returns 0x00 (0001ms, 23555ms total)
T1B30 3096:078 JLINK_ReadReg(R0)  returns 0x400E1A00 (0000ms, 23555ms total)
T1B30 3096:078 JLINK_ReadReg(R1)  returns 0x00000000 (0000ms, 23555ms total)
T1B30 3096:078 JLINK_ReadReg(R2)  returns 0xA5000004 (0000ms, 23555ms total)
T1B30 3096:078 JLINK_ReadReg(R3)  returns 0x00010002 (0000ms, 23555ms total)
T1B30 3096:078 JLINK_ReadReg(R4)  returns 0x400E1400 (0000ms, 23555ms total)
T1B30 3096:078 JLINK_ReadReg(R5)  returns 0x00000100 (0000ms, 23555ms total)
T1B30 3096:078 JLINK_ReadReg(R6)  returns 0x00085409 (0001ms, 23556ms total)
T1B30 3096:079 JLINK_ReadReg(R7)  returns 0x00000000 (0000ms, 23556ms total)
T1B30 3096:079 JLINK_ReadReg(R8)  returns 0x00001388 (0000ms, 23556ms total)
T1B30 3096:079 JLINK_ReadReg(R9)  returns 0x0008BDE9 (0000ms, 23556ms total)
T1B30 3096:079 JLINK_ReadReg(R10)  returns 0x20001484 (0000ms, 23556ms total)
T1B30 3096:079 JLINK_ReadReg(R11)  returns 0x00000096 (0000ms, 23556ms total)
T1B30 3096:079 JLINK_ReadReg(R12)  returns 0x00000000 (0000ms, 23556ms total)
T1B30 3096:079 JLINK_ReadReg(R13 (SP))  returns 0x20001AE8 (0000ms, 23556ms total)
T1B30 3096:079 JLINK_ReadReg(R14)  returns 0xFFFFFFFF (0000ms, 23556ms total)
T1B30 3096:079 JLINK_ReadReg(R15 (PC))  returns 0x000801C8 (0000ms, 23556ms total)
T1B30 3096:079 JLINK_ReadReg(XPSR)  returns 0x01000000 (0000ms, 23556ms total)
T1B30 3096:079 JLINK_ReadReg(MSP)  returns 0x20001AE8 (0000ms, 23556ms total)
T1B30 3096:079 JLINK_ReadReg(PSP)  returns 0x30418A04 (0000ms, 23556ms total)
T1B30 3096:079 JLINK_ReadReg(PRIMASK)  returns 0x00000000 (0000ms, 23556ms total)
T1B30 3096:079 JLINK_ReadReg(BASEPRI)  returns 0x00000000 (0000ms, 23556ms total)
T1B30 3096:079 JLINK_ReadReg(FAULTMASK)  returns 0x00000000 (0000ms, 23556ms total)
T1B30 3096:079 JLINK_ReadReg(CONTROL)  returns 0x00000000 (0000ms, 23556ms total)
T1B30 3096:101 JLINK_ReadMemHW(0x000839D0, 0x0001 Bytes, ...) -- CPU_ReadMem(1 bytes @ 0x000839D0) - Data: 2D  returns 0x00 (0001ms, 23557ms total)
T1B30 3096:144 JLINK_ReadReg(R15 (PC))  returns 0x000801C8 (0000ms, 23557ms total)
T1B30 3096:144 JLINK_GetNumBPUnits(Type = 0xFFFFFF02)  returns 0x06 (0000ms, 23557ms total)
T1B30 3096:144 JLINK_SetBPEx(Addr = 0x000839D0, Type = 0xFFFFFF02)  returns 0x00000001 (0000ms, 23557ms total)
T1B30 3096:144 JLINK_GetBPInfo(BPHandle = 1)  returns 0x00 (0000ms, 23557ms total)
T1B30 3096:144 JLINK_Go() -- CPU_WriteMem(4 bytes @ 0xE0002000) -- CPU_ReadMem(4 bytes @ 0xE0001000) -- CPU_WriteMem(4 bytes @ 0xE0002008) -- CPU_WriteMem(4 bytes @ 0xE000200C) -- CPU_WriteMem(4 bytes @ 0xE0002010) -- CPU_WriteMem(4 bytes @ 0xE0002014) -- CPU_WriteMem(4 bytes @ 0xE0002018) -- CPU_WriteMem(4 bytes @ 0xE000201C) -- CPU_WriteMem(4 bytes @ 0xE0001004) (0007ms, 23564ms total)
T1F34 3096:151 JLINK_IsHalted()  returns FALSE (0001ms, 23565ms total)
T1F34 3096:172 JLINK_IsHalted()  returns TRUE (0003ms, 23567ms total)
T1F34 3096:175 JLINK_GetMOEs(...) -- CPU_ReadMem(4 bytes @ 0xE000ED30) -- CPU_WriteMem(4 bytes @ 0xE000ED30)  returns 0x01 (0002ms, 23566ms total)
T1F34 3096:177 JLINK_ReadReg(R15 (PC))  returns 0x000839D0 (0000ms, 23566ms total)
T1F34 3096:177 JLINK_GetBPInfo(BPHandle = 1)  returns 0x00 (0000ms, 23566ms total)
T1F34 3096:177 JLINK_ClrBPEx(BPHandle = 0x00000001)  returns 0x00 (0000ms, 23566ms total)
T1B30 3096:181 JLINK_ReadReg(R15 (PC))  returns 0x000839D0 (0000ms, 23566ms total)
T1B30 3096:181 JLINK_ReadReg(R13 (SP))  returns 0x20001AE0 (0000ms, 23566ms total)
T1B30 3096:181 JLINK_ReadMemHW(0x000839D0, 0x0004 Bytes, ...) -- CPU_ReadMem(4 bytes @ 0x000839D0) - Data: 2D E9 F0 4F  returns 0x00 (0001ms, 23567ms total)
T1B30 3096:194 JLINK_ReadReg(R15 (PC))  returns 0x000839D0 (0000ms, 23567ms total)
T1B30 3096:194 JLINK_Go() -- CPU_ReadMem(4 bytes @ 0xE0001000) -- CPU_WriteMem(4 bytes @ 0xE0002008) (0003ms, 23570ms total)
T1F34 3096:197 JLINK_IsHalted()  returns FALSE (0001ms, 23571ms total)
T1F34 3096:238 JLINK_IsHalted()  returns FALSE (0001ms, 23571ms total)
T1F34 3096:399 JLINK_IsHalted()  returns FALSE (0001ms, 23571ms total)
T1F34 3097:040 JLINK_IsHalted()  returns FALSE (0003ms, 23573ms total)
T1F34 3097:683 JLINK_IsHalted()  returns FALSE (0001ms, 23571ms total)
T1F34 3098:324 JLINK_IsHalted()  returns FALSE (0002ms, 23572ms total)
T1F34 3098:966 JLINK_IsHalted()  returns FALSE (0001ms, 23571ms total)
T1F34 3099:607 JLINK_IsHalted()  returns FALSE (0002ms, 23572ms total)
T1F34 3100:249 JLINK_IsHalted()  returns FALSE (0001ms, 23571ms total)
T1B30 3100:634 JLINK_Halt()  returns 0x00 (0004ms, 23574ms total)
T1F34 3100:890 JLINK_IsHalted()  returns TRUE (0001ms, 23575ms total)
T1F34 3100:891 JLINK_GetMOEs(...) -- CPU_ReadMem(4 bytes @ 0xE000ED30) -- CPU_WriteMem(4 bytes @ 0xE000ED30)  returns 0x01 (0002ms, 23576ms total)
T1F34 3100:893 JLINK_ReadReg(R15 (PC))  returns 0x00085424 (0000ms, 23576ms total)
T12B0 3100:894 JLINK_ResetPullsRESET(ON) (0000ms, 23576ms total)
T12B0 3100:894 JLINK_ResetNoHalt() >0x108 TIF>Found SWD-DP with ID 0x2BA01477 >0x0D TIF> >0x21 TIF> >0x0D TIF> >0x28 TIF> >0x0D TIF> >0x28 TIF> >0x0D TIF> >0x21 TIF> >0x0D TIF> >0x28 TIF> >0x0D TIF> >0x21 TIF> >0x0D TIF> >0x21 TIF> >0x0D TIF> >0x21 TIF> >0x0D TIF> >0x21 TIF> >0x0D TIF> >0x28 TIF> >0x0D TIF> >0x28 TIF> >0x0D TIF> >0x21 TIF> >0x0D TIF> >0x28 TIF> >0x0D TIF> >0x28 TIF> >0x0D TIF> >0x28 TIF> >0x0D TIF> >0x21 TIF> >0x0D TIF> >0x21 TIF> >0x0D TIF> >0x28 TIF> >0x0D TIF> >0x21 TIF> >0x0D TIF>
 >0x21 TIF>Found Cortex-M3 r2p0, Little endian. -- CPU_WriteMem(4 bytes @ 0xE0002000) -- CPU_ReadMem(4 bytes @ 0xE000EDF0) -- CPU_ReadMem(4 bytes @ 0xE0002000)FPUnit: 6 code (BP) slots and 2 literal slots -- CPU_ReadMem(4 bytes @ 0xE000EDFC) -- CPU_ReadMem(4 bytes @ 0xE0001000) -- CPU_ReadMem(4 bytes @ 0xE000ED88) -- CPU_WriteMem(4 bytes @ 0xE000ED88) -- CPU_ReadMem(4 bytes @ 0xE000ED88) -- CPU_WriteMem(4 bytes @ 0xE000ED88)CoreSight components:ROMTbl 0 @ E00FF000 -- CPU_ReadMem(16 bytes @ 0xE00FF000)
 -- CPU_ReadMem(16 bytes @ 0xE000EFF0) -- CPU_ReadMem(16 bytes @ 0xE000EFE0)ROMTbl 0 [0]: FFF0F000, CID: B105E00D, PID: 002BB000 SCS -- CPU_WriteMem(4 bytes @ 0xE0001000) -- CPU_ReadMem(16 bytes @ 0xE0001FF0) -- CPU_ReadMem(16 bytes @ 0xE0001FE0)ROMTbl 0 [1]: FFF02000, CID: B105E00D, PID: 002BB002 DWT -- CPU_ReadMem(16 bytes @ 0xE0002FF0) -- CPU_ReadMem(16 bytes @ 0xE0002FE0)ROMTbl 0 [2]: FFF03000, CID: B105E00D, PID: 002BB003 FPB -- CPU_ReadMem(16 bytes @ 0xE0000FF0)
 -- CPU_ReadMem(16 bytes @ 0xE0000FE0)ROMTbl 0 [3]: FFF01000, CID: B105E00D, PID: 002BB001 ITM -- CPU_ReadMem(16 bytes @ 0xE00FF010) -- CPU_ReadMem(16 bytes @ 0xE0040FF0) -- CPU_ReadMem(16 bytes @ 0xE0040FE0)ROMTbl 0 [4]: FFF41000, CID: B105900D, PID: 002BB923 TPIU-Lite
                JLINK_Reset() -- CPU_ReadMem(16 bytes @ 0x20000000) -- CPU_WriteMem(16 bytes @ 0x20000000) -- CPU_ReadMem(4 bytes @ 0xE000EDFC) -- CPU_WriteMem(4 bytes @ 0xE000EDFC) -- CPU_ReadMem(4 bytes @ 0xE0001000) -- CPU_WriteMem(4 bytes @ 0xE000ED0C) -- CPU_ReadMem(4 bytes @ 0xE000EDF0) -- CPU_ReadMem(4 bytes @ 0xE000EDF0) -- CPU_WriteMem(4 bytes @ 0xE000EDFC) -- CPU_WriteMem(16 bytes @ 0x20000000) -- CPU_WriteMem(4 bytes @ 0xE0002000) -- CPU_ReadMem(4 bytes @ 0xE000EDFC)
 -- CPU_ReadMem(4 bytes @ 0xE0001000) (0027ms, 0027ms total)
                JLINK_Go() -- CPU_ReadMem(4 bytes @ 0xE0001000) -- CPU_WriteMem(4 bytes @ 0xE0002008) -- CPU_WriteMem(4 bytes @ 0xE000200C) -- CPU_WriteMem(4 bytes @ 0xE0002010) -- CPU_WriteMem(4 bytes @ 0xE0002014) -- CPU_WriteMem(4 bytes @ 0xE0002018) -- CPU_WriteMem(4 bytes @ 0xE000201C) -- CPU_WriteMem(4 bytes @ 0xE0001004) (0005ms, 0032ms total)
               (0074ms, 23650ms total)
T12B0 3101:077 JLINK_Close() -- CPU is running -- CPU_WriteMem(4 bytes @ 0xE0002008) -- CPU is running -- CPU_WriteMem(4 bytes @ 0xE000200C) -- CPU is running -- CPU_WriteMem(4 bytes @ 0xE0002010) -- CPU is running -- CPU_WriteMem(4 bytes @ 0xE0002014) -- CPU is running -- CPU_WriteMem(4 bytes @ 0xE0002018) -- CPU is running -- CPU_WriteMem(4 bytes @ 0xE000201C) >0x42 TIF> >0x28 TIF> >0x0D TIF> >0x21 TIF> (0010ms, 23660ms total)
T12B0 3101:077  (0010ms, 23660ms total)
T12B0 3101:077 Closed (0010ms, 23660ms total)
